 ****** HSPICE -- H-2013.03-SP2 64-BIT (Aug 26 2013) win64 ******               
  Copyright (C) 2013 Synopsys, Inc. All Rights Reserved.                        
  Unpublished-rights reserved under US copyright laws.
  This program is protected by law and is subject to the
  terms and conditions of the license agreement from Synopsys.
  Use of this program is your acceptance to be bound by the
  license agreement. HSPICE is the trademark of Synopsys, Inc.
  Input File: inverter.sp                                                       
  Command line options: -i inverter.sp -o inverter.lis
  lic:  
  lic: FLEXlm: v10.9.8 
  lic: USER:   iman                 HOSTNAME: DESKTOP-QCMARDT 
  lic: HOSTID: "8c89a5095ae6 00ffb396c3c5 0cd292461edc 0cd292461edd 0ed292461edd
  0ed292461edc" PID:  
  lic: Using FLEXlm license file: 
  lic: C:\hspice_lic\synopsys.dat 
  lic: Checkout 1 hspice 
  lic: License/Maintenance for hspice will expire on 31-dec-2019/2019.12 
  lic: NODE LOCKED license on hostid "8c89a5095ae6 00ffb396c3c5 0cd292461edc 0cd
 292461edd 0ed292461ed
  lic:   
 Init: read install configuration file: C:\synopsys\Hspice_H-2013.03-SP2\meta.cfg
 **warning**(nmos:m_n)Warning:  Acde = 0.27944 may be too small in BSIM4 model with w=1e-006 l=1e-007.
  
      
 *****************************************************************
 ******  option summary
 ******
 runlvl  = 3         bypass  = 2         
 ******  
 inverter

  ******  dc transfer curves tnom=  25.000 temp=  25.000 *****
x

        volt        ids    
                           
    0.           68.9066p  
   10.00000m    910.1007n  
   20.00000m      1.6118u  
   30.00000m      2.1264u  
   40.00000m      2.4841u  
   50.00000m      2.7216u  
   60.00000m      2.8755u  
   70.00000m      2.9760u  
   80.00000m      3.0437u  
   90.00000m      3.0916u  
  100.00000m      3.1272u  
  110.00000m      3.1552u  
  120.00000m      3.1780u  
  130.00000m      3.1975u  
  140.00000m      3.2146u  
  150.00000m      3.2300u  
  160.00000m      3.2441u  
  170.00000m      3.2573u  
  180.00000m      3.2698u  
  190.00000m      3.2817u  
  200.00000m      3.2931u  
  210.00000m      3.3042u  
  220.00000m      3.3151u  
  230.00000m      3.3256u  
  240.00000m      3.3360u  
  250.00000m      3.3462u  
  260.00000m      3.3563u  
  270.00000m      3.3663u  
  280.00000m      3.3761u  
  290.00000m      3.3859u  
  300.00000m      3.3956u  
  310.00000m      3.4052u  
  320.00000m      3.4148u  
  330.00000m      3.4244u  
  340.00000m      3.4339u  
  350.00000m      3.4434u  
  360.00000m      3.4528u  
  370.00000m      3.4622u  
  380.00000m      3.4716u  
  390.00000m      3.4810u  
  400.00000m      3.4904u  
  410.00000m      3.4997u  
  420.00000m      3.5091u  
  430.00000m      3.5184u  
  440.00000m      3.5278u  
  450.00000m      3.5371u  
  460.00000m      3.5464u  
  470.00000m      3.5557u  
  480.00000m      3.5651u  
  490.00000m      3.5744u  
  500.00000m      3.5837u  
  510.00000m      3.5931u  
  520.00000m      3.6024u  
  530.00000m      3.6117u  
  540.00000m      3.6211u  
  550.00000m      3.6304u  
  560.00000m      3.6398u  
  570.00000m      3.6491u  
  580.00000m      3.6585u  
  590.00000m      3.6679u  
  600.00000m      3.6773u  
  610.00000m      3.6867u  
  620.00000m      3.6961u  
  630.00000m      3.7055u  
  640.00000m      3.7149u  
  650.00000m      3.7244u  
  660.00000m      3.7338u  
  670.00000m      3.7433u  
  680.00000m      3.7527u  
  690.00000m      3.7622u  
  700.00000m      3.7717u  
  710.00000m      3.7812u  
  720.00000m      3.7908u  
  730.00000m      3.8003u  
  740.00000m      3.8099u  
  750.00000m      3.8195u  
  760.00000m      3.8291u  
  770.00000m      3.8387u  
  780.00000m      3.8483u  
  790.00000m      3.8580u  
  800.00000m      3.8676u  
  810.00000m      3.8773u  
  820.00000m      3.8870u  
  830.00000m      3.8967u  
  840.00000m      3.9065u  
  850.00000m      3.9163u  
  860.00000m      3.9261u  
  870.00000m      3.9359u  
  880.00000m      3.9457u  
  890.00000m      3.9556u  
  900.00000m      3.9655u  
  910.00000m      3.9754u  
  920.00000m      3.9854u  
  930.00000m      3.9954u  
  940.00000m      4.0054u  
  950.00000m      4.0154u  
  960.00000m      4.0255u  
  970.00000m      4.0356u  
  980.00000m      4.0458u  
  990.00000m      4.0560u  
    1.00000       4.0662u  
y
1****** HSPICE -- H-2013.03-SP2 64-BIT (Aug 26 2013) win64 ******               
 ******  
 inverter

  ******  operating point information tnom=  25.000 temp=  25.000 *****
 ***** operating point status is all       simulation time is     0.     
    node    =voltage      node    =voltage

 +0:vds     =   0.      0:vgs     = 400.0000m


 **** voltage sources

 subckt                        
 element  0:vds      0:vgs     
  volts      0.       400.0000m
  current   68.9066p -137.8133p
  power      0.        55.1253p

     total voltage source power dissipation=   55.1253p       watts




 **** mosfets


 subckt             
 element  0:m_n     
 model    0:nmos    
 region       Cutoff
  id         0.     
  ibs      2.161e-28
  ibd      2.998e-28
  vgs      400.0000m
  vds        0.     
  vbs        0.     
  vth      470.8418m
  vdsat     50.5251m
  vod      -70.8418m
  beta       9.4638m
  gam eff  528.0000m
  gm         0.     
  gds      101.9432u
  gmb        0.     
  cdtot      1.0416f
  cgtot      1.4520f
  cstot      1.3136f
  cbtot      1.7315f
  cgs      539.4645a
  cgd      513.2369a




          ***** job concluded
1****** HSPICE -- H-2013.03-SP2 64-BIT (Aug 26 2013) win64 ******               
 ******  
 inverter

  ******  job statistics summary tnom=  25.000 temp=  25.000 *****

  ******  HSPICE Threads Information  ******

  Command Line Threads Count :     1
  Available CPU Count        :     4
  Actual Threads Count       :     1


  ******  Circuit Statistics  ******
  # nodes       =       7 # elements   =       3
  # resistors   =       0 # capacitors =       0 # inductors   =       0
  # mutual_inds =       0 # vccs       =       0 # vcvs        =       0
  # cccs        =       0 # ccvs       =       0 # volt_srcs   =       2
  # curr_srcs   =       0 # diodes     =       0 # bjts        =       0
  # jfets       =       0 # mosfets    =       1 # U elements  =       0
  # T elements  =       0 # W elements =       0 # B elements  =       0
  # S elements  =       0 # P elements =       0 # va device   =       0
  # vector_srcs =       0 # N elements =       0


  ******  Runtime Statistics (seconds)  ******

  analysis           time    # points   tot. iter  conv.iter
  op point           0.00           1           4
  dc sweep           0.01         101         204
  readin             0.01
  errchk             0.00
  setup              0.00
  output             0.00


           peak memory used         40.52 megabytes
           total cpu time            0.03 seconds
           total elapsed time        0.09 seconds
           job started at     21:58:52 10/30/2017
           job ended   at     21:58:52 10/30/2017


  lic: Release hspice token(s) 
 lic: total license checkout elapse time:        0.06(s)
